time	V(drain)	V(gate)	-I(R1)	Id(M1)
0.000000000000000e+00	5.000000e+01	9.187250e-03	-1.734723e-20	1.018445e-10
9.999999824516700e-15	5.000000e+01	9.187258e-03	2.511796e-09	-2.850674e-10
1.999999964903340e-14	5.000000e+01	9.187265e-03	5.015869e-09	-5.035521e-10
3.999999929806680e-14	5.000000e+01	9.187280e-03	9.997893e-09	-9.775893e-10
7.999999859613360e-14	5.000000e+01	9.187310e-03	1.990447e-08	-1.854358e-09
1.599999971922672e-13	5.000000e+01	9.187371e-03	3.980082e-08	-3.481168e-09
3.199999943845344e-13	5.000000e+01	9.187495e-03	8.142000e-08	-7.258446e-09
6.399999887690688e-13	5.000000e+01	9.187781e-03	1.763330e-07	-1.659544e-08
1.279999977538138e-12	5.000000e+01	9.188506e-03	4.166576e-07	-4.263872e-08
2.559999955076275e-12	5.000000e+01	9.190495e-03	1.075792e-06	-1.245896e-07
5.119999910152551e-12	5.000000e+01	9.196177e-03	2.955322e-06	-3.973900e-07
9.205358795855193e-12	5.000000e+01	9.209107e-03	7.222933e-06	-1.102039e-06
1.389343362555661e-11	5.000000e+01	9.230562e-03	1.428438e-05	-2.394765e-06
2.087912802336777e-11	5.000000e+01	9.278039e-03	2.984196e-05	-5.492313e-06
3.289729258620836e-11	5.000000e+01	9.407138e-03	7.181334e-05	-1.445881e-05
5.693362171188955e-11	5.000001e+01	9.773769e-03	1.902370e-04	-4.069710e-05
6.716850177945828e-11	5.000001e+01	9.983230e-03	2.574374e-04	-5.590361e-05
7.953023986486255e-11	5.000002e+01	1.031424e-02	3.628308e-04	-8.009565e-05
1.000000000000000e-10	5.000004e+01	1.094943e-02	5.641003e-04	-1.265924e-04
1.020469760135138e-10	5.000004e+01	1.102318e-02	5.872584e-04	-1.320886e-04
1.061409280405412e-10	5.000005e+01	1.117187e-02	6.338128e-04	-1.431992e-04
1.143288320945962e-10	5.000006e+01	1.147390e-02	7.277085e-04	-1.657937e-04
1.307046402027062e-10	5.000008e+01	1.209302e-02	9.173569e-04	-2.117283e-04
1.634562564189261e-10	5.000016e+01	1.336766e-02	1.299720e-03	-3.046312e-04
1.938560010621945e-10	5.000025e+01	1.458803e-02	1.655698e-03	-3.912510e-04
2.322830241103886e-10	5.000039e+01	1.617693e-02	2.103467e-03	-5.003392e-04
2.761670119755910e-10	5.000059e+01	1.803542e-02	2.606164e-03	-6.229492e-04
3.342909796309138e-10	5.000093e+01	2.054386e-02	3.250644e-03	-7.803246e-04
4.041897595619744e-10	5.000143e+01	2.359592e-02	3.984508e-03	-9.597479e-04
4.957430262903518e-10	5.000223e+01	2.760560e-02	4.868104e-03	-1.176081e-03
6.098933469591276e-10	5.000343e+01	3.256686e-02	5.840900e-03	-1.414659e-03
7.612987092170852e-10	5.000533e+01	3.902576e-02	6.920137e-03	-1.679966e-03
9.593007251250674e-10	5.000824e+01	4.723584e-02	8.017900e-03	-1.950834e-03
1.233605713890468e-09	5.001283e+01	5.822835e-02	9.088674e-03	-2.216879e-03
1.622878418395370e-09	5.002007e+01	7.333402e-02	1.004390e-02	-2.457658e-03
2.096316073650093e-09	5.002951e+01	9.125906e-02	1.068551e-02	-2.624861e-03
2.700984495475005e-09	5.004209e+01	1.137929e-01	1.107322e-02	-2.735007e-03
3.484711219275873e-09	5.005878e+01	1.430231e-01	1.133765e-02	-2.822934e-03
4.484711219275873e-09	5.008113e+01	1.844745e-01	1.239491e-02	-3.119696e-03
5.484711219275873e-09	5.010760e+01	2.409637e-01	1.601558e-02	-4.072913e-03
6.475793840723010e-09	5.014222e+01	3.215381e-01	2.285497e-02	-5.885911e-03
7.215308791342498e-09	5.017710e+01	4.025154e-01	2.949484e-02	-7.730191e-03
8.044756296348084e-09	5.022693e+01	5.149349e-01	3.727481e-02	-1.021119e-02
9.044756296348085e-09	5.029528e+01	6.704495e-01	4.599091e-02	-1.420274e-02
1.004475629634809e-08	5.036190e+01	8.388661e-01	5.372295e-02	-1.999134e-02
1.104475629634809e-08	5.041607e+01	1.012935e+00	6.051183e-02	-2.671543e-02
1.204475629634809e-08	5.045469e+01	1.189379e+00	6.648954e-02	-3.257208e-02
1.304475629634809e-08	5.048170e+01	1.369012e+00	7.173536e-02	-3.708638e-02
1.404475629634809e-08	5.050154e+01	1.553040e+00	7.630459e-02	-4.061665e-02
1.504475629634809e-08	5.051695e+01	1.741753e+00	8.024422e-02	-4.346203e-02
1.604475629634809e-08	5.052940e+01	1.934846e+00	8.360130e-02	-4.579140e-02
1.704475629634809e-08	5.053978e+01	2.131759e+00	8.642405e-02	-4.770450e-02
1.804475629634808e-08	5.054860e+01	2.331847e+00	8.876026e-02	-4.926852e-02
1.904475629634808e-08	5.055623e+01	2.534453e+00	9.065557e-02	-5.053203e-02
2.004475629634808e-08	5.056291e+01	2.738945e+00	9.215273e-02	-5.153398e-02
2.104475629634808e-08	5.056881e+01	2.944732e+00	9.329136e-02	-5.230571e-02
2.204475629634808e-08	5.057408e+01	3.151266e+00	9.410802e-02	-5.287466e-02
2.304475629634808e-08	5.057880e+01	3.358052e+00	9.463622e-02	-5.326384e-02
2.404475629634808e-08	5.058305e+01	3.564641e+00	9.490667e-02	-5.349396e-02
2.504475629634808e-08	5.058691e+01	3.770627e+00	9.494737e-02	-5.356532e-02
2.604475629634808e-08	5.059034e+01	3.975597e+00	9.478413e-02	-5.268987e-02
2.704475629634808e-08	5.059225e+01	4.178267e+00	9.444500e-02	-3.699097e-02
2.804475629634807e-08	5.058896e+01	4.375481e+00	9.397803e-02	3.458798e-02
2.871898910805529e-08	5.057822e+01	4.501118e+00	9.361620e-02	1.569507e-01
2.925064512604415e-08	5.055328e+01	4.589001e+00	9.332796e-02	3.089921e-01
2.994444173761650e-08	5.047891e+01	4.679702e+00	9.302957e-02	4.957783e-01
3.017037146956721e-08	5.040659e+01	4.684361e+00	9.308982e-02	4.454213e-01
3.029538243783997e-08	5.031291e+01	4.659276e+00	9.331313e-02	3.003913e-01
3.036676655907904e-08	5.023286e+01	4.630609e+00	9.352436e-02	2.029745e-01
3.042865279382873e-08	5.015987e+01	4.603154e+00	9.369069e-02	1.542906e-01
3.047847117547960e-08	5.010768e+01	4.584305e+00	9.377218e-02	1.311846e-01
3.053634446234530e-08	5.005431e+01	4.566217e+00	9.381725e-02	1.113316e-01
3.059492959470655e-08	5.000606e+01	4.550951e+00	9.382862e-02	9.681650e-02
3.065011910965462e-08	4.996551e+01	4.539195e+00	9.381479e-02	8.616167e-02
3.073521374763818e-08	4.990948e+01	4.524559e+00	9.376824e-02	7.436033e-02
3.082180930430142e-08	4.985889e+01	4.513165e+00	9.370726e-02	6.557420e-02
3.099500041762790e-08	4.976956e+01	4.496922e+00	9.358191e-02	5.421576e-02
3.116089820454169e-08	4.969368e+01	4.486801e+00	9.349117e-02	4.744570e-02
3.147397956039825e-08	4.956518e+01	4.476130e+00	9.341279e-02	4.057257e-02
3.178494084937831e-08	4.944664e+01	4.470917e+00	9.343582e-02	3.694710e-02
3.237332843635567e-08	4.923291e+01	4.467476e+00	9.361039e-02	3.376598e-02
3.304954735121628e-08	4.899175e+01	4.466319e+00	9.381945e-02	3.179615e-02
3.404954735121628e-08	4.863731e+01	4.465946e+00	9.403380e-02	3.009166e-02
3.504954735121629e-08	4.828321e+01	4.465760e+00	9.415752e-02	2.894375e-02
3.604954735121629e-08	4.792936e+01	4.465767e+00	9.424056e-02	2.822511e-02
3.704954735121629e-08	4.757579e+01	4.466020e+00	9.431291e-02	2.785341e-02
3.804954735121629e-08	4.722247e+01	4.466495e+00	9.437908e-02	2.777100e-02
3.904954735121630e-08	4.686934e+01	4.467149e+00	9.443855e-02	2.792882e-02
4.004954735121630e-08	4.651638e+01	4.467949e+00	9.449086e-02	2.829152e-02
4.104954735121630e-08	4.616357e+01	4.468872e+00	9.453638e-02	2.882995e-02
4.204954735121630e-08	4.581089e+01	4.469900e+00	9.457576e-02	2.952262e-02
4.304954735121631e-08	4.545836e+01	4.471019e+00	9.460963e-02	3.035054e-02
4.404954735121631e-08	4.510595e+01	4.472218e+00	9.463855e-02	3.129929e-02
4.504954735121631e-08	4.475368e+01	4.473486e+00	9.466298e-02	3.235546e-02
4.604954735121631e-08	4.440153e+01	4.474816e+00	9.468336e-02	3.350875e-02
4.704954735121631e-08	4.404952e+01	4.476201e+00	9.470007e-02	3.474918e-02
4.804954735121632e-08	4.369764e+01	4.477634e+00	9.471346e-02	3.606907e-02
4.904954735121632e-08	4.334590e+01	4.479110e+00	9.472387e-02	3.746072e-02
5.004954735121632e-08	4.299429e+01	4.480624e+00	9.473156e-02	3.891822e-02
5.104954735121632e-08	4.264283e+01	4.482172e+00	9.473680e-02	4.043546e-02
5.204954735121633e-08	4.229150e+01	4.483750e+00	9.473984e-02	4.200777e-02
5.304954735121633e-08	4.194032e+01	4.485356e+00	9.474087e-02	4.363021e-02
5.404954735121633e-08	4.158929e+01	4.486985e+00	9.474009e-02	4.529906e-02
5.504954735121633e-08	4.123841e+01	4.488635e+00	9.473768e-02	4.701023e-02
5.604954735121634e-08	4.088768e+01	4.490304e+00	9.473380e-02	4.876070e-02
5.704954735121634e-08	4.053709e+01	4.491991e+00	9.472857e-02	5.054707e-02
5.804954735121634e-08	4.018668e+01	4.493691e+00	9.472216e-02	5.236687e-02
5.904954735121634e-08	3.983641e+01	4.495406e+00	9.471465e-02	5.421723e-02
6.004954735121634e-08	3.948631e+01	4.497131e+00	9.470616e-02	5.609613e-02
6.104954735121634e-08	3.913637e+01	4.498867e+00	9.469679e-02	5.800112e-02
6.204954735121634e-08	3.878660e+01	4.500612e+00	9.468663e-02	5.993051e-02
6.304954735121633e-08	3.843699e+01	4.502364e+00	9.467573e-02	6.188224e-02
6.404954735121633e-08	3.808756e+01	4.504124e+00	9.466420e-02	6.385489e-02
6.504954735121632e-08	3.773830e+01	4.505888e+00	9.465208e-02	6.584667e-02
6.604954735121632e-08	3.738922e+01	4.507658e+00	9.463944e-02	6.785642e-02
6.704954735121631e-08	3.704031e+01	4.509432e+00	9.462631e-02	6.988260e-02
6.804954735121631e-08	3.669159e+01	4.511210e+00	9.461277e-02	7.192421e-02
6.904954735121631e-08	3.634304e+01	4.512991e+00	9.459884e-02	7.397992e-02
7.004954735121630e-08	3.599469e+01	4.514774e+00	9.458457e-02	7.604891e-02
7.104954735121630e-08	3.564653e+01	4.516559e+00	9.456999e-02	7.813001e-02
7.304954735121629e-08	3.495078e+01	4.520132e+00	9.454003e-02	8.232544e-02
7.504954735121628e-08	3.425581e+01	4.523709e+00	9.450918e-02	8.655983e-02
7.704954735121627e-08	3.356167e+01	4.527286e+00	9.447762e-02	9.082764e-02
7.904954735121626e-08	3.286836e+01	4.530862e+00	9.444550e-02	9.512410e-02
8.104954735121625e-08	3.217593e+01	4.534434e+00	9.441295e-02	9.944502e-02
8.304954735121625e-08	3.148439e+01	4.538003e+00	9.438004e-02	1.037868e-01
8.604954735121623e-08	3.044884e+01	4.543347e+00	9.433021e-02	1.103317e-01
8.904954735121622e-08	2.941551e+01	4.548678e+00	9.427996e-02	1.169071e-01
9.204954735121621e-08	2.838452e+01	4.553997e+00	9.422948e-02	1.235056e-01
9.447811877978762e-08	2.755144e+01	4.558290e+00	9.418846e-02	1.288654e-01
9.690669020835905e-08	2.672035e+01	4.562576e+00	9.414744e-02	1.342271e-01
9.933526163693046e-08	2.589124e+01	4.566854e+00	9.410642e-02	1.395908e-01
1.017638330655019e-07	2.506412e+01	4.571124e+00	9.406541e-02	1.449565e-01
1.041924044940733e-07	2.423898e+01	4.575386e+00	9.402441e-02	1.503242e-01
1.066209759226447e-07	2.341584e+01	4.579640e+00	9.398341e-02	1.556939e-01
1.090495473512161e-07	2.259467e+01	4.583886e+00	9.394242e-02	1.610656e-01
1.124781187797875e-07	2.143786e+01	4.589874e+00	9.388465e-02	1.686476e-01
1.159066902083590e-07	2.028853e+01	4.595847e+00	9.382699e-02	1.762002e-01
1.193352616369304e-07	1.914671e+01	4.601805e+00	9.376946e-02	1.837236e-01
1.227638330655018e-07	1.801237e+01	4.607749e+00	9.371204e-02	1.912177e-01
1.261924044940732e-07	1.688554e+01	4.613679e+00	9.365473e-02	1.986825e-01
1.296209759226446e-07	1.576619e+01	4.619594e+00	9.359755e-02	2.061180e-01
1.330495473512160e-07	1.465434e+01	4.625494e+00	9.354047e-02	2.135242e-01
1.347638330655018e-07	1.410318e+01	4.628438e+00	9.351199e-02	2.172037e-01
1.364781187797874e-07	1.355628e+01	4.631365e+00	9.348363e-02	2.208628e-01
1.381924044940732e-07	1.301364e+01	4.634274e+00	9.345538e-02	2.245015e-01
1.399066902083589e-07	1.247526e+01	4.637166e+00	9.342725e-02	2.281198e-01
1.416209759226446e-07	1.194114e+01	4.640041e+00	9.339923e-02	2.317176e-01
1.433352616369303e-07	1.141128e+01	4.642899e+00	9.337133e-02	2.352950e-01
1.450495473512160e-07	1.088568e+01	4.645740e+00	9.334354e-02	2.388520e-01
1.470495473512160e-07	1.028162e+01	4.648998e+00	9.331149e-02	2.429569e-01
1.490495473512160e-07	9.687183e+00	4.652194e+00	9.327984e-02	2.470146e-01
1.500495473512160e-07	9.394053e+00	4.653762e+00	9.326420e-02	2.490234e-01
1.510495473512160e-07	9.103946e+00	4.655307e+00	9.324871e-02	2.510172e-01
1.520495473512160e-07	8.817112e+00	4.656826e+00	9.323340e-02	2.529950e-01
1.530495473512159e-07	8.533836e+00	4.658314e+00	9.321828e-02	2.549552e-01
1.540495473512159e-07	8.254433e+00	4.659767e+00	9.320339e-02	2.568963e-01
1.550495473512159e-07	7.979256e+00	4.661179e+00	9.318876e-02	2.588166e-01
1.560495473512159e-07	7.708694e+00	4.662545e+00	9.317441e-02	2.607141e-01
1.570495473512159e-07	7.443186e+00	4.663857e+00	9.316041e-02	2.625867e-01
1.580495473512159e-07	7.183215e+00	4.665110e+00	9.314680e-02	2.644323e-01
1.590495473512159e-07	6.929312e+00	4.666293e+00	9.313364e-02	2.662483e-01
1.600495473512159e-07	6.682060e+00	4.667399e+00	9.312096e-02	2.680322e-01
1.620495473512159e-07	6.210045e+00	4.669346e+00	9.309736e-02	2.714934e-01
1.640495473512159e-07	5.772470e+00	4.670892e+00	9.307645e-02	2.747975e-01
1.650495473512159e-07	5.568202e+00	4.671508e+00	9.306712e-02	2.763873e-01
1.660495473512159e-07	5.374302e+00	4.672028e+00	9.305853e-02	2.779357e-01
1.670495473512159e-07	5.191074e+00	4.672464e+00	9.305065e-02	2.794445e-01
1.680495473512159e-07	5.018574e+00	4.672841e+00	9.304341e-02	2.809169e-01
1.690495473512159e-07	4.856559e+00	4.673185e+00	9.303669e-02	2.823566e-01
1.700495473512159e-07	4.704487e+00	4.673527e+00	9.303036e-02	2.837675e-01
1.710495473512159e-07	4.561553e+00	4.673892e+00	9.302428e-02	2.851524e-01
1.720495473512159e-07	4.426772e+00	4.674297e+00	9.301832e-02	2.865131e-01
1.730495473512159e-07	4.299086e+00	4.674754e+00	9.301238e-02	2.878492e-01
1.740495473512159e-07	4.177451e+00	4.675261e+00	9.300641e-02	2.891598e-01
1.750495473512159e-07	4.060909e+00	4.675817e+00	9.300037e-02	2.904433e-01
1.760495473512158e-07	3.948615e+00	4.676411e+00	9.299422e-02	2.916982e-01
1.770495473512158e-07	3.839842e+00	4.677038e+00	9.298798e-02	2.929232e-01
1.780495473512158e-07	3.733984e+00	4.677691e+00	9.298164e-02	2.941179e-01
1.790495473512158e-07	3.630530e+00	4.678363e+00	9.297522e-02	2.952820e-01
1.800495473512158e-07	3.529063e+00	4.679049e+00	9.296873e-02	2.964157e-01
1.810495473512158e-07	3.429233e+00	4.679746e+00	9.296218e-02	2.975195e-01
1.820495473512158e-07	3.330755e+00	4.680449e+00	9.295558e-02	2.985942e-01
1.840495473512158e-07	3.136958e+00	4.681867e+00	9.294227e-02	3.006603e-01
1.853352616369301e-07	3.014449e+00	4.682781e+00	9.293365e-02	3.019268e-01
1.866209759226444e-07	2.892520e+00	4.683695e+00	9.292501e-02	3.031598e-01
1.879066902083586e-07	2.771172e+00	4.684607e+00	9.291637e-02	3.043592e-01
1.891924044940729e-07	2.650404e+00	4.685517e+00	9.290771e-02	3.055249e-01
1.904781187797872e-07	2.530217e+00	4.686426e+00	9.289904e-02	3.066571e-01
1.917638330655015e-07	2.410611e+00	4.687334e+00	9.289036e-02	3.077557e-01
1.930495473512158e-07	2.291586e+00	4.688240e+00	9.288167e-02	3.088207e-01
1.960495473512158e-07	2.014018e+00	4.690358e+00	9.286138e-02	3.112260e-01
1.990495473512157e-07	1.737272e+00	4.692496e+00	9.284098e-02	3.135190e-01
2.020495473512157e-07	1.461065e+00	4.694675e+00	9.282033e-02	3.157208e-01
2.050495473512157e-07	1.185255e+00	4.696925e+00	9.279926e-02	3.178487e-01
2.070495473512157e-07	1.001576e+00	4.698484e+00	9.278487e-02	3.192332e-01
2.090495473512157e-07	8.180537e-01	4.700107e+00	9.277006e-02	3.205947e-01
2.110495473512157e-07	6.347028e-01	4.701815e+00	9.275473e-02	3.219360e-01
2.120495473512157e-07	5.431004e-01	4.702710e+00	9.274681e-02	3.225999e-01
2.130495473512157e-07	4.531074e-01	4.704951e+00	9.273181e-02	3.232001e-01
2.140495473512157e-07	3.706803e-01	4.713507e+00	9.268697e-02	3.236266e-01
2.150495473512157e-07	3.033046e-01	4.734490e+00	9.258925e-02	3.239247e-01
2.160495473512157e-07	2.528242e-01	4.769252e+00	9.243377e-02	3.242523e-01
2.170495473512157e-07	2.156183e-01	4.814691e+00	9.222196e-02	3.246467e-01
2.180495473512157e-07	1.877160e-01	4.867472e+00	9.195423e-02	3.250741e-01
2.190495473512157e-07	1.663750e-01	4.925293e+00	9.163620e-02	3.255157e-01
2.200495473512157e-07	1.496786e-01	4.986554e+00	9.127592e-02	3.259563e-01
2.210495473512157e-07	1.363376e-01	5.050175e+00	9.088003e-02	3.263869e-01
2.220495473512157e-07	1.254714e-01	5.115413e+00	9.045382e-02	3.268019e-01
2.230495473512156e-07	1.164703e-01	5.181754e+00	9.000140e-02	3.271984e-01
2.240495473512156e-07	1.089035e-01	5.248831e+00	8.952620e-02	3.275748e-01
2.250495473512156e-07	1.024600e-01	5.316377e+00	8.903110e-02	3.279306e-01
2.260495473512156e-07	9.691103e-02	5.384193e+00	8.851863e-02	3.282660e-01
2.270495473512156e-07	9.208484e-02	5.452132e+00	8.799103e-02	3.285813e-01
2.280495473512156e-07	8.785048e-02	5.520078e+00	8.745027e-02	3.288774e-01
2.290495473512156e-07	8.410647e-02	5.587942e+00	8.689810e-02	3.291548e-01
2.300495473512156e-07	8.077302e-02	5.655655e+00	8.633613e-02	3.294147e-01
2.310495473512156e-07	7.778663e-02	5.723159e+00	8.576576e-02	3.296579e-01
2.320495473512156e-07	7.509616e-02	5.790410e+00	8.518828e-02	3.298852e-01
2.330495473512156e-07	7.265996e-02	5.857371e+00	8.460484e-02	3.300978e-01
2.340495473512156e-07	7.044382e-02	5.924012e+00	8.401647e-02	3.302963e-01
2.350495473512156e-07	6.841934e-02	5.990310e+00	8.342412e-02	3.304818e-01
2.360495473512156e-07	6.656282e-02	6.056243e+00	8.282864e-02	3.306549e-01
2.370495473512156e-07	6.485426e-02	6.121795e+00	8.223077e-02	3.308165e-01
2.380495473512156e-07	6.327674e-02	6.186953e+00	8.163120e-02	3.309673e-01
2.390495473512156e-07	6.181578e-02	6.251704e+00	8.103056e-02	3.311080e-01
2.400495473512156e-07	6.045896e-02	6.316040e+00	8.042939e-02	3.312393e-01
2.410495473512156e-07	5.919557e-02	6.379953e+00	7.982821e-02	3.313618e-01
2.420495473512157e-07	5.801631e-02	6.443437e+00	7.922745e-02	3.314761e-01
2.430495473512157e-07	5.691307e-02	6.506487e+00	7.862754e-02	3.315827e-01
2.440495473512157e-07	5.587876e-02	6.569098e+00	7.802882e-02	3.316821e-01
2.450495473512157e-07	5.490712e-02	6.631268e+00	7.743162e-02	3.317749e-01
2.460495473512158e-07	5.399264e-02	6.692995e+00	7.683623e-02	3.318614e-01
2.470495473512158e-07	5.313044e-02	6.754275e+00	7.624292e-02	3.319421e-01
2.480495473512158e-07	5.231617e-02	6.815110e+00	7.565191e-02	3.320174e-01
2.490495473512158e-07	5.154596e-02	6.875497e+00	7.506342e-02	3.320876e-01
2.500495473512158e-07	5.081633e-02	6.935438e+00	7.447764e-02	3.321531e-01
2.510495473512159e-07	5.012417e-02	6.994931e+00	7.389472e-02	3.322143e-01
2.520495473512159e-07	4.946668e-02	7.053978e+00	7.331480e-02	3.322713e-01
2.530495473512159e-07	4.884132e-02	7.112579e+00	7.273803e-02	3.323245e-01
2.540495473512159e-07	4.824580e-02	7.170735e+00	7.216451e-02	3.323742e-01
2.550495473512160e-07	4.767805e-02	7.228449e+00	7.159434e-02	3.324206e-01
2.560495473512160e-07	4.713617e-02	7.285720e+00	7.102761e-02	3.324639e-01
2.570495473512160e-07	4.661844e-02	7.342552e+00	7.046440e-02	3.325042e-01
2.580495473512160e-07	4.612330e-02	7.398945e+00	6.990477e-02	3.325419e-01
2.590495473512160e-07	4.564930e-02	7.454903e+00	6.934878e-02	3.325772e-01
2.600495473512161e-07	4.519512e-02	7.510426e+00	6.879649e-02	3.326101e-01
2.610495473512161e-07	4.475955e-02	7.565517e+00	6.824791e-02	3.326408e-01
2.620495473512161e-07	4.434148e-02	7.620178e+00	6.770310e-02	3.326695e-01
2.630495473512161e-07	4.393988e-02	7.674413e+00	6.716208e-02	3.326963e-01
2.640495473512162e-07	4.355381e-02	7.728222e+00	6.662487e-02	3.327214e-01
2.650495473512162e-07	4.318238e-02	7.781609e+00	6.609149e-02	3.327448e-01
2.660495473512162e-07	4.282477e-02	7.834576e+00	6.556197e-02	3.327667e-01
2.670495473512162e-07	4.248026e-02	7.887126e+00	6.503628e-02	3.327872e-01
2.690495473512163e-07	4.182771e-02	7.990986e+00	6.399650e-02	3.328243e-01
2.710495473512163e-07	4.121971e-02	8.093208e+00	6.297215e-02	3.328568e-01
2.730495473512164e-07	4.065188e-02	8.193817e+00	6.196319e-02	3.328853e-01
2.760495473512164e-07	3.986724e-02	8.341751e+00	6.047846e-02	3.329217e-01
2.790495473512165e-07	3.915353e-02	8.486176e+00	5.902783e-02	3.329517e-01
2.820495473512166e-07	3.850166e-02	8.627172e+00	5.761085e-02	3.329766e-01
2.846209759226452e-07	3.799361e-02	8.745235e+00	5.642367e-02	3.329937e-01
2.871924044940738e-07	3.751368e-02	8.860995e+00	5.525947e-02	3.330091e-01
2.897638330655024e-07	3.706187e-02	8.974452e+00	5.411825e-02	3.330228e-01
2.923352616369311e-07	3.663818e-02	9.085606e+00	5.299999e-02	3.330347e-01
2.949066902083597e-07	3.624261e-02	9.194458e+00	5.190471e-02	3.330449e-01
2.974781187797883e-07	3.587515e-02	9.301006e+00	5.083240e-02	3.330534e-01
3.000495473512170e-07	3.553582e-02	9.405251e+00	4.978307e-02	3.330601e-01
3.031924044940741e-07	3.514565e-02	9.529704e+00	4.853033e-02	3.330676e-01
